Frequency Log(Hz), Gain (dB), Phase (deg)
3.00000330702098, 30.1844311922622, 149.697070440692
3.00999901826351, 24.9780978989321, 3.4457869228663
3.02000165441083, 3.48588967134439, 75.2873326899611
3.03000562693885, 23.0161387240752, 189.480111433811
3.04000571832066, 23.5053836991248, 71.7279123225088
3.04999706515493, 31.9639024512141, 105.297052811958
3.05999275589204, 27.5062758836505, 129.599787707909
3.07000459811, 32.9178193739285, 99.7516639510356
3.0799927309839, 23.9606083584716, 114.395486323051
3.09000294779621, 22.4941180332902, 129.039039036435
3.09999650842934, 28.0637475599364, 105.973760052621
3.11000080906787, 33.395818175136, 139.690710482789
3.11999466293782, 28.700962912182, 106.120248426246
3.13000363828281, 24.4533335763049, 100.799932262896
3.14000693911243, 32.9943148904193, 95.6454068038226
3.14999981694791, 30.0281029577259, 109.75925790161
3.16000583832442, 24.5965318756674, 112.35502055945
3.17000532186667, 28.8969128393342, 39.1951302264507
3.17999358236785, 21.484142246636, 60.9662482452506
3.190005436766, 24.5658988401984, -105.919865249065
3.19999588945832, 1.22214346271595, 71.0448122843936
3.20999867030517, 26.2819159304808, 84.7728093546938
3.21999564412006, 21.3976784524513, 112.060284998578
3.23000589783148, 25.2737068607223, 115.193664204932
3.24000013239226, 27.5046773486611, 95.4334945173566
3.24999704841057, 27.0014132251417, 99.4497169476453
3.26000246307543, 24.8923662273424, 108.167291340073
3.26999981795393, 25.8828906805656, 111.966711728291
3.279995146171, 25.5615570429875, 106.130570533933
3.29000421164423, 27.4594017198501, 92.5188430793356
3.30000068984962, 25.3125402724926, 128.632589257942
3.31000011404039, 24.7057135855321, 106.973677203094
3.31999716623034, 26.7596178108009, 115.195114057415
3.3299963462566, 24.4604938745665, 113.458885829465
3.34000163504945, 25.1144377496557, 127.152637302852
3.34999846102084, 25.0084292318376, 124.725742543183
3.35999992735521, 25.3629918023406, 109.499731098139
3.37000059983632, 27.9013899308887, 86.218541758824
3.3800038386795, 26.2903145218679, 103.803244888211
3.38999610675649, 24.8126914033945, 118.689726051433
3.39999717920894, 25.7037849591205, 132.446856037231
3.41000134452198, 22.3751413970157, 123.634494354807
3.42000326760922, 27.5374343908147, 149.588005610904
3.42999797293823, 26.2656503955466, 92.3184049325035
3.44000285615304, 23.4039672567836, 148.371103033157
3.44999775711607, 24.064263220875, 128.704464278432
3.45999926429037, 27.070089704217, 128.170594556554
3.47000181218862, 23.3305602079833, 134.241515015813
3.48000020519702, 22.1542697293144, 115.969296966111
3.4900026891692, 15.1505778340886, -9.06625762175501
3.49999746978964, 13.6505253750457, 61.7194514843273
3.50999869589289, 26.0767151035658, 124.591815630246
3.52000081315797, 21.7037949875685, 170.610246297961
3.52999863661142, 23.3603181309818, 161.219334929078
3.53999899894863, 25.3313608914965, 143.127057618464
3.55000230764832, 20.9782238112826, 127.23029178307
3.55999766873837, 23.2483157200787, 144.213619609892
3.57000227037735, 22.7541007640912, 122.559423325211
3.57999972789045, 21.4245773081021, 120.430815340676
3.59000099441034, 21.7698148750742, 125.008567434958
3.6000006915169, 22.5933016021298, 122.404503289919
3.60999876643031, 22.9407226492136, 130.657105032055
3.61999991066602, 22.4063821415163, 127.768452537355
3.62999879536044, 24.3018456041474, 147.666683849653
3.63999971664584, 22.8192038551357, 134.319829521105
3.65000194238805, 22.1240593190388, 134.690288364818
3.6600002598612, 22.7302082782025, 130.957049241714
3.66999845761835, 6.24174020858641, 149.799006144565
3.67999987473582, 21.8661501907692, 129.978447686678
3.68999917191597, 22.5792986134251, 111.65578444
3.69999943970551, 23.0337677541257, 128.126826059869
3.70999943392397, 22.5821055909088, 135.118427418945
3.72000175758472, 26.0360639277258, 120.615921294513
3.73000112939508, 23.4137148726771, 133.029665740049
3.73999998519068, 23.0035356572596, 138.822861219319
3.75000043149688, 22.0499300925786, 125.036079268802
3.76000075365051, 22.7873028365474, 124.935763201878
3.76999927162233, 21.4611279439159, 131.70619420875
3.7800010546204, 22.1326310720631, 139.066360024467
3.79000075973549, 21.6226602900224, 137.702155033201
3.7999998142457, 21.7486826117953, 130.769288591267
3.80999940525344, 21.9574038122738, 132.254224958048
3.82000049721633, 21.9740940195262, 132.056661882535
3.83000085729261, 20.52177476429, 122.697523582797
3.84000125787367, 21.5017438072534, 131.652506800855
3.84999943002093, 24.1298775500213, 150.548932508055
3.85999877785404, 22.4398669508387, 143.30522847097
3.86999955780308, 21.734243953374, 130.842168816199
3.87999921680932, 22.190151207609, 129.873864958085
3.89000052382276, 20.8952860460753, 139.166688372835
3.90000079057144, 21.2874419848558, 133.209158932071
3.90999993987657, 21.1222664865211, 129.666676700352
3.92000021954807, 21.2073173987933, 119.74876608519
3.93000118355219, 22.2421001629679, 123.585668419035
3.93999998444321, 20.5358104735929, 126.79977410767
3.95000072260443, 22.1812652479882, 133.36575488212
3.96000036280632, 20.3975088338416, 126.980429638374
3.97000035756839, 22.8453919928392, 136.610323993039
3.97999979628936, 15.9413661434012, 127.016308323537
3.98999980304422, 19.3252160946656, 126.107729315759
3.99999926235039, 19.81604625683, 135.66246463538
4.00999901826351, 20.8023183119931, 124.747091863318
4.01999972309296, 19.3931621322519, 120.037849042566
4.02999996489922, 19.5068960069861, 124.962219826885
4.04000018516678, 20.0646645283213, 129.848059649942
4.05000066999145, 18.506187774795, 128.511120186012
4.05999980149489, 21.4952168233491, 131.714039888736
4.06999943425922, 18.0312687608194, 112.713123865479
4.07999945948522, 19.8030236961575, 124.498640239211
4.08999966016467, 19.7616338721211, 122.135410301543
4.09999972124884, 19.3836758976189, 122.64051321666
4.10999923923137, 18.6763200803245, 117.328416227859
4.11999926527822, 18.8889838145432, 138.002856528562
4.13000063993298, 19.8058799567255, 119.627415738151
4.13999961388398, 19.2201337145349, 119.727146133591
4.14999981694791, 19.8709884951003, 122.017313735541
4.16000024189028, 18.9433721604974, 119.087681463741
4.16999985281723, 19.3126829773342, 123.574699840835
4.18000026315334, 19.7802993217352, 115.946700413655
4.19000021386719, 10.5091421409528, 176.337534184384
4.19999971751092, 19.7879286695812, 121.710859894521
4.20999991727272, 16.6106695492532, 117.092403016746
4.22000051846608, 21.8146756708123, 126.44321183193
4.22999994365738, 18.2120541480775, 106.911631266684
4.24000013239226, 17.733022780166, 103.774264837843
4.25000046015857, 16.8539398389712, 110.432302834885
4.26000024036396, 18.3118319022795, 109.305176062278
4.26999981795393, 17.124971841214, 111.908607701593
4.28000045289683, 17.1417759175479, 108.889779783757
4.29000006294166, 17.6399715214891, 124.097638607884
4.29999967627841, 17.3658897468733, 108.762955225832
4.31000011404039, 17.5545928982342, 115.96963233482
4.32000007009975, 19.5608801177933, 125.088424479741
4.33000012995228, 17.1453027134453, 111.054755536378
4.33999978627585, 18.6782942126435, 115.60426250377
4.35000026771681, 16.6540050247858, 107.399396885181
4.35999992735521, 17.0614997846903, 114.904431198117
4.36999973714728, 17.3182079380005, 116.04998788211
4.37999962343549, 15.6862441526771, 102.468158217172
4.39000022608364, 15.6120482334459, 107.643994450577
4.40000039965217, 17.3311897436266, 97.3100684248603
4.40999977095989, 16.7840765975173, 109.371676600287
4.42000019213064, 15.6427693488193, 116.074238345111
4.43000022705599, 16.0101476013473, 95.1587779929166
4.43999991909148, 20.2476715912372, 132.209110391012
4.44999990978314, 14.3417095448039, 106.298977905236
4.45999996551124, 14.7168064553247, 96.4791296243839
4.46999975641676, 13.4263935340201, 93.4607877324823
4.48000020519702, 14.2780606730582, 99.4845192010447
4.49000007151029, 13.9061413114093, 86.6817607395265
4.50000002787886, 14.2892818702124, 95.8892628512126
4.50999994582125, 14.7450338188252, 102.707245518403
4.52000020242138, 12.0829853478578, 102.411172207052
4.52999983028398, 13.1184491386783, 100.545658883873
4.54000016544894, 12.5832378208831, 92.5247900411527
4.5500000277616, 13.1137470666004, 95.3473419346055
4.55999989674078, 13.2591843836404, 101.289306808121
4.57000009310251, 13.0632386174176, 96.4630644255947
4.58000025982042, 13.4980814578583, 95.3170642866226
4.58999995476798, 11.5090190541381, 92.9527878258536
4.60000018352825, 12.8471043173948, 87.6803610011087
4.60999975928383, 13.1963608556766, 89.0733730580821
4.61999991066602, 10.287321533566, 96.0861865801099
4.63000021761126, 12.1372307565865, 93.4783495745666
4.64000017993751, 11.9362734133138, 85.1776330840461
4.65000013140911, 12.1033016393017, 86.2578261124722
4.65999981742117, 10.5817178383093, 91.8553806919188
4.67000018709664, 11.1769695776408, 86.4679196136154
4.67999987473582, 12.6627628371939, 74.6019011285073
4.68999999773495, 10.964069048276, 84.2817242389664
4.69999984321598, 9.4676764133405, 84.8266330694582
4.70999982824942, 10.0114054581719, 78.6395596370339
4.71999983084231, 9.41353699871638, 74.1179965348985
4.72999999966384, 10.3614580807309, 82.9787127155219
4.73999998519068, 8.01295570423405, 76.7495113575806
4.7500000718683, 11.9851833870153, 74.0159853068953
4.7600000507659, 9.73806946215513, 81.3749006777029
4.76999995850858, 8.66364113965588, 80.2133021027294
4.78000004774634, 11.0061195926305, 69.7525769507026
4.79000010376545, 9.6983480720045, 85.1618134880839
4.80000013476521, 8.63394384006249, 86.1831750368757
4.810000031701, 8.12472241230844, 75.6106949610413
4.81999988502912, 9.66222889763928, 74.2141057405354
4.82999995991487, 6.62276892042235, 74.7967201025275
4.84000008860648, 7.78160719938479, 62.7606474488678
4.8500000013479, 9.59393337977678, 73.8663000636479
4.85999989449898, 8.90755051705507, 74.1926060416259
4.87000010341596, 7.02614038300118, 88.5777075374128
4.88000001659953, 7.09901429701814, 59.1179855479551
4.89000000276703, 6.71984434604567, 70.3110840799725
4.90000002677911, 5.3815594453281, 63.1431071256647
4.90999993987657, 4.978960841294, 66.0573999715753
4.91999997640922, 6.50971807604935, 63.8325317728885
4.92999999553189, 6.09082839370476, 66.6238060336311
4.93999998444321, 5.69332915623838, 67.2947386475461
4.95000004187376, 5.5325139632491, 69.1477878694268
4.95999991931584, 4.48951553643284, 76.833520032076
4.96999992417298, 4.11485472850294, 64.3868828922942
4.98000000805454, 4.79939504843541, 65.1561276092149
4.99000000998903, 4.34839123962582, 63.897713415533
5.00000007128752, 2.63656161960813, 66.1193957608635
5.0100000064182, 5.26747035533261, 58.688554115288
5.01999991622514, 3.96039214294668, 64.1539827400686
5.02999996489922, 3.43432924495553, 62.9343040190147
5.0400000007271, 3.19160016974115, 61.9287311615278
5.04999994902654, 3.08224159109726, 63.1657471223206
5.05999997763349, 2.69790169105336, 60.7347422838463
5.06999995064706, 3.59879996364703, 63.5563949800488
5.07999996411862, 2.69676467468653, 58.4525286260962
5.08999998892895, 2.19444614920808, 57.1193181376553
5.10000004252948, 1.5778008355686, 62.2407988919461
5.11000002415033, 2.07495098568131, 59.6025564180714
5.12000003233021, 1.81375017858739, 59.3114342694402
5.13000004026053, 1.30498810237658, 58.5607448936136
5.14000005340117, 1.47523625812201, 57.771304643239
5.14999996011875, 1.8014133626358, 54.8060617970071
5.15999996206668, 1.31874308561235, 56.7234503109154
5.1699999895443, 1.32565317848634, 52.1345503644558
5.17999999592389, 0.913713623887663, 54.7482943077745
5.1899999527206, 0.586409311747337, 53.1055957639803
5.19999997271323, 0.743537501576044, 54.5938711154042
5.21000004196928, 0.609462294556549, 54.7085966098753
5.22000003103394, 0.437874593632215, 53.6763701381154
5.22999994365738, 0.433085065444608, 50.869703489234
5.24000001601868, 0.488475322910536, 52.5256063035651
5.25000000526039, 0.337682381121854, 50.7298981277117
5.26000001809219, 0.29970214153057, 49.8947595326894
5.27000003516628, 0.278364628979717, 48.9692601475291
5.28000002836115, 0.285647446543355, 48.3850836247798
5.28999995922359, 0.291851707713777, 47.6155835488126
5.29999998035002, 0.29593125263709, 46.8621857107246
5.31000001499042, 0.303879370936712, 46.0659586091846
5.31999997330442, 0.299868772511575, 45.2475957967158
5.33000003536029, 0.301066420869206, 44.4515855939451
5.33999997115356, 0.315153840917195, 43.5796247519854
5.34999999671289, 0.326005162764473, 42.692870278231
5.36000001563362, 0.327280126975116, 41.8303412850878
5.36999999595417, 0.342732056538304, 40.7803308705378
5.37999996065652, 0.441461902632549, 39.7161934584831
5.38999997892511, 0.609914132247389, 38.5484221600386
5.39999999709807, 2.05447259960066, 35.7688094658353
5.41000000699456, 1.02822334391579, 36.9680180373447
5.42000003835614, 1.32877818208836, 34.801370653059
5.43000000164474, 2.00646868679277, 43.2892240408233
5.43999999251826, 2.95944304919415, 32.5193118735806
5.44999998153852, 4.24634872713536, 48.0454886419346
5.45999996551124, 1.37594485801304, 48.6190267352297
5.47000003052024, 3.68622889868962, 33.1372371323827
5.48000000429903, 1.1351671609634, 51.5442255443317
5.49000000606861, 1.64881616863121, 52.6201390280153
5.50000002787886, 3.82087380860136, 56.8785068128216
5.51000000831757, 8.00811894739037, 41.195001167736
5.52000001920024, 2.91971951797562, 40.4559128965393
5.53000000933458, -0.877733181254607, 40.1965735146176
5.5399999904741, 6.0460040292048, 46.6760021060706
5.5500000277616, -5.24450059152935, -88.5962698780257
5.5600000081406, 7.63829532745339, 23.3752860245471
5.56999998423848, -3.93816664682115, 80.5217052171302
5.57999999385552, -1.7341320788416, 56.4784667123297
5.59000000675015, -5.51810050679329, 68.8031063833027
5.59999998033263, -0.215635802360348, 13.9888982054381
5.61000000749686, -2.3359800430329, 75.157174905022
5.62000000769121, -2.90209174134476, 44.2709343648896
5.62999998056978, 2.0968333089023, 8.28032152637923
5.6399999946209, -4.00166699759909, 12.2359245572142
5.64999999558539, 6.93185347777196, 106.136326323411
5.65999999439724, 10.2239616780887, 198.361587508552
5.67000001414912, 8.78213049550362, 295.286275268195
5.68000000149394, 9.82987392631404, 393.756126271418
5.68999999773495, -5.18352608305294, 455.299190403033
5.70000000462006, -4.88159336167508, 313.143144880257
5.7099999859795, 4.11440936770611, 461.740729386333
5.71999998498202, 0.666180498387912, 517.244061613093
5.72999999966384, 4.03219080481355, 555.31572312736
5.73999998519068, -5.36270652101858, 508.634437851996
5.74999999994255, 2.94097372812912, 539.04855381461
5.76000001562164, -0.790600996566834, 485.855049167492
5.76999999285287, -0.180881582645993, 492.792413151334
5.78000001418383, -1.0141435446117, 480.159134189574
5.79000000536985, 0.0700363610725797, 481.470594074178
5.80000000655743, -4.13614289220817, 516.683950780677
5.81000000037864, -2.41307312993956, 472.57427134157
5.82000000746663, -0.0113623926191404, 475.66556717103
5.82999998982749, -4.90362033208331, 492.593118167377
5.84000000091131, 1.11873415101017, 487.896665888683
5.8500000013479, 1.70270160780403, 423.146572740782
5.86000000616331, 18.0223468747269, 460.691938881851
5.86999999429344, -2.30930839725524, 457.927392353957
5.87999998993988, -2.83819905379432, 397.892946532989
5.89000000276703, -13.6064898967503, 509.244930678395
5.90000000131934, -5.01020500747496, 554.832171989822
5.90999998963704, 5.5713790091069, 472.74986620458
5.92000000072311, -3.85253580076891, 449.303122676892
5.92999999553189, 1.53951295484282, 372.967175186057
5.94000000766279, 2.47852279506101, 517.95036623922
5.94999999649168, -9.01734508564257, 632.301629107742
5.96000000801397, -0.959940293057432, 540.314351373114
5.96999998918232, 1.86569110573032, 643.548128927153
5.98000000805454, 6.34421916035171, 547.949222957128
5.99000000998903, 8.24495163589275, 580.572835625774
5.99999999039388, -8.45441579691945, 623.599219820259
