Frequency Log(Hz), Gain (dB), Phase (deg)
3.00000330702098, 23.05263060045, 147.656683554375
3.00833573549003, 46.0495014229659, 165.701506835458
3.01666702569425, 38.7321420909782, 205.369507132957
3.02499426213247, 45.1327118251734, 275.269130697799
3.03333342621643, 39.5456586755434, 346.84103970819
3.04166248971664, 6.79808354422388, 397.679751372967
3.04999706515493, 55.8159437342401, 307.93839632564
3.05833386154708, 50.6121468766273, 291.290273370036
3.06666976961305, 41.7956525699267, 389.416836815679
3.07500185499283, 44.5566301916056, 357.173921482389
3.08332735147194, 32.6349654039855, 379.368604474753
3.09166003005338, 32.9448864479104, 420.52863807096
3.09999650842934, 42.942477409993, 411.040563392085
3.10833358932219, 40.8725428986157, 419.564823972836
3.11666825370778, 36.2241734756102, 438.500931781239
3.12499765403033, 40.3490334897388, 508.264290712591
3.13333398487429, 44.6793156375731, 500.008672651633
3.14167387395365, 39.4029113176612, 647.499196172255
3.14999981694791, 45.6191427778586, 550.840418552392
3.15833771034851, 40.0259077776351, 545.083067360346
3.16667012149489, 51.7267314670879, 563.198150144526
3.17499437664947, 41.1446857201006, 726.833058138608
3.1833344792073, 43.8032037300452, 674.881430353356
3.1916605393469, 39.3956523636177, 679.434698250498
3.19999588945832, 33.7269359132095, 693.70683561405
3.208337026344, 43.5597207310627, 821.426928373614
3.21666835693628, 41.548082384491, 817.839583717672
3.22499949691214, 40.27621511962, 792.917886585561
3.23332747793791, 45.573029687844, 841.168149976729
3.24166109404324, 39.3903897197911, 801.764971912469
3.24999704841057, 42.2745661552359, 926.070195753067
3.25833222610444, 56.7164599036316, 970.365930738348
3.26666368729104, 26.4118350925218, 955.711503083157
3.27499939690885, 49.475655653633, 1017.45942813558
3.28333613341685, 54.7548101402531, 937.340785844597
3.29167085441296, 45.0068571235591, 806.172351696225
3.30000068984962, 43.2674210140015, 823.737876020651
3.30833287848064, 40.5144277049415, 767.17704126854
3.31666430859663, 34.8532614043911, 817.427206302158
3.32500161211616, 37.9583643573169, 802.371846806288
3.33333208802623, 34.5741312539531, 871.914258360413
3.34166234846718, 27.8113652697311, 711.727656529673
3.34999846102084, 37.7918972562693, 606.142727506517
3.3583371139802, 41.8744959497097, 490.850608124132
3.36666648490504, 42.9259452609158, 455.582446886121
3.3750011721899, 42.7090557844134, 381.639312787044
3.38332952961305, 37.4238275368986, 472.898821465429
3.39166534946671, 47.5765252343801, 455.59368532363
3.39999717920894, 38.2532907132442, 450.978732020645
3.4083301604555, 38.5282835600935, 356.121082975964
3.41666899584797, 36.7276355911434, 437.293312973704
3.42500276996446, 48.4719719207406, 584.870093081806
3.43333624039471, 38.4103925082088, 453.961049216298
3.44166644265565, 8.60622528262097, 587.72966621177
3.44999775711607, 40.6767426063936, 529.985243377459
3.45833418161218, 36.3682595945544, 419.63504659324
3.46666554026792, 38.3875963553878, 491.855453642038
3.47500268555671, 42.6346613204029, 334.607017336929
3.48333566298424, 36.8140870691473, 418.94921806534
3.49166824384342, 41.4833745971278, 446.245597240289
3.49999746978964, 34.3155417476345, 461.007773000886
3.50833309893531, 38.3009047872503, 388.214950964064
3.51666563487429, 48.0846192331161, 492.912073777311
3.52499830765425, 33.8669780933483, 452.846113059656
3.53333405174981, 37.2132011413124, 456.805312695557
3.54166390128552, 35.6038596792748, 459.963235827209
3.55000230764832, 32.4503088104152, 426.25159873646
3.55833462259719, 46.3076385707152, 374.647073354986
3.56666917691837, 14.8648362868174, 237.292965657646
3.57499748182666, 38.1260184017639, 71.0725835069948
3.58333274688039, 39.6172807337788, 102.159216553908
3.59166642103915, 38.5067534331158, 90.9193630355747
3.6000006915169, 33.4341647543056, 71.4292810541661
3.60833254263642, 36.6133606969292, 106.88568885417
3.61666890728089, 37.4194399626769, 33.0625197895655
3.6250017526808, 36.2137762760384, 85.6768604057358
3.63333299947328, 37.4980215636309, 70.6631373707016
3.64166437316466, 38.7164003651506, 86.8302048267631
3.65000194238805, 35.2123572287032, 67.8811492246516
3.65833349188261, 37.5765156340991, 108.674116005002
3.66666509297553, 37.0988232752059, 92.8254564394333
3.67499803753525, 38.0851012693707, 131.277025478339
3.68333346249409, 32.1922302227094, 89.4306420196871
3.69166824553575, 39.4757011253117, 126.834063642039
3.69999943970551, 36.6685311073672, 75.8858347630641
3.70833218355827, 36.4209124479468, 95.1882711889284
3.71666729291931, 34.2258470166452, 55.6709898159396
3.72500165224051, 36.7163916665239, 99.1139930812398
3.73333232106426, 31.6796000604858, 85.8508654590946
3.74166752525345, 21.0261572489908, 135.463679533613
3.75000043149688, 39.6892185238937, 79.7405596111934
3.75833171541586, 36.3257337693581, 131.472184951623
3.76666541043912, 41.5990737682366, 73.5263610196137
3.77499839999381, 35.7799815385845, 81.6728071507849
3.78333440379265, 34.9485134467819, 102.871074396679
3.79166700174993, 40.3888232069141, 93.0977216100223
3.7999998142457, 35.4111703186944, 93.2175571332893
3.80833299280412, 35.0895489385724, 65.6045788582332
3.81666662032427, 31.652740347441, 75.7823119406917
3.82500071596204, 33.5813487192983, 90.1834460962326
3.83333227139803, 38.7720150909635, 73.2665443757271
3.84166718525454, 33.3904910970697, 88.1845678443916
3.84999943002093, 37.1636702694827, 93.8404088689264
3.85833458188415, 32.9617953298046, 82.0538972897719
3.86666674587814, 33.8101092709087, 77.1480036737766
3.87500119957869, 33.5755983976172, 86.5379611561577
3.88333218680508, 31.8655010142477, 49.1156358034296
3.89166730387769, 36.9008378593382, 59.438950633948
3.90000079057144, 35.092888502674, 93.0324676688785
3.90833225419609, 32.6696168342864, 84.4182663616934
3.91666617898395, 31.4844950461477, 77.5980745636211
3.92499944531419, 32.5300449397676, 83.0386694859263
3.93333382453733, 31.6961003173919, 57.212214372143
3.94166627196329, 32.3480199965522, 83.1719007752626
3.95000072260443, 32.1797483826708, 79.6531942606072
3.95833408188981, 32.1551793928035, 79.3308477467079
3.96666561319558, 31.376764473753, 72.0823286245595
3.97500100809054, 31.9829345190868, 61.0880010094619
3.98333286400326, 32.1858162140705, 68.1415175255974
3.99166664525469, 30.9008249300655, 99.3135981007804
3.99999926235039, 34.4206136517854, 95.4952780817428
4.00833375159037, 34.721102940171, 81.4452094066581
4.01666702569425, 27.1692715418626, 66.7380637596189
4.02499998981021, 29.6696576409604, 53.103287511442
4.03333342621643, -5.78381564596582, 219.848770802207
4.04166616440162, 30.0223421551195, 98.6061306337622
4.05000066999145, 25.448073745902, 205.85580139093
4.05833386154708, 24.4129869774635, 49.3200613042497
4.06666630051635, 24.3131000240738, 84.4487690911258
4.07500015340864, 31.0742147975883, 108.790260571606
4.08333402850839, 26.6912665553025, 52.3778344458438
4.09166658020167, 32.9198791163104, 78.9278518482538
4.09999972124884, 29.1928756466907, 77.4286529361456
4.10833358932219, 29.5288984319554, 81.3717442564226
4.11666670778796, 30.264573610333, 82.5617198927395
4.12500068712015, 30.4787978394792, 94.6761674594501
4.13333398487429, 29.4415501317606, 84.9229766738592
4.14166657678767, 27.8754635004637, 75.312529021366
4.14999981694791, 28.4776259419981, 85.0889588747443
4.15833349687666, 27.422009172341, 74.1934166209477
4.16666598809288, 27.8079867491545, 78.8689976408209
4.17499978316379, 27.8821815551903, 74.4663338458393
4.18333315327721, 27.9781387704452, 71.9403849334442
4.19166704304928, 25.3264730756017, 78.0233628904681
4.19999971751092, 26.5447667693863, 73.6794868058827
4.20833327107933, 27.6382791128502, 73.304368798832
4.21666712896926, 28.1879554315099, 64.2994443319381
4.22499949691214, 29.3256108915016, 82.6287079876253
4.23333338666618, 24.8232034209597, 73.5795362322758
4.2416668904714, 26.7120632644474, 69.3203815094056
4.25000046015857, 26.0973840129881, 79.9884161252089
4.25833334173824, 25.4515198765336, 77.2171433260811
4.26666697058956, 25.5554398597738, 73.271284528463
4.27500047053854, 25.8031490106321, 71.5044561094632
4.28333297375107, 24.3452551730731, 70.9070141677284
4.29166672160096, 23.5163336776388, 69.8707274405413
4.29999967627841, 25.217419992671, 71.3244751418346
4.30833287848064, 25.5176786139151, 72.3890105729017
4.31666625942543, 25.4292558721497, 70.5351463488298
4.3249996983724, 23.9209118731233, 74.0928067732289
4.33333302671557, 23.3545382869609, 72.3740601017697
4.34166695272675, 23.7870156831338, 71.0029691841212
4.35000026771681, 23.2090189042093, 65.8168186346765
4.35833356928338, 22.7290292261231, 65.7262559124724
4.36666648490504, 23.0882568205104, 67.5688560119617
4.37500031937712, 21.7713306701763, 69.3319416235502
4.38333371266087, 23.389144041779, 66.4594458045378
4.39166699088123, 22.2218700490838, 72.0435922519351
4.40000039965217, 23.3771845867722, 74.0857924069111
4.40833331969607, 22.4107150500808, 64.3611429494914
4.41666667146402, 21.9737165603954, 62.8989081419955
4.42499972968722, 22.0625337992623, 68.5693637257343
4.43333325789996, 20.6731498425033, 70.2913122186068
4.44166644265565, 22.6368353726351, 66.7505044901653
4.44999990978314, 21.0366243890878, 62.3427719800451
4.45833347769654, 20.1627968894402, 60.0441282986489
4.46666692134593, 20.8330684165245, 64.7847233327626
4.47499997590728, 19.7905829817515, 65.0323366377353
4.48333300483046, 20.5973287410307, 65.0999933409005
4.49166694002578, 20.3042824349663, 63.5439233496352
4.50000002787886, 20.3000404194997, 60.9281840879045
4.50833309893531, 21.693212570903, 45.3438696137681
4.51666686576131, 19.9792975971628, 59.0510207499118
4.52500011889628, 20.3022608317625, 61.7769148022847
4.53333345947851, 19.1998407479496, 61.2830499387647
4.54166680637221, 18.1643627398498, 64.6597353716258
4.5500000277616, 19.18875580288, 58.7767700693331
4.55833350431765, 18.3137899367291, 64.9013935456329
4.56666643435517, 18.3957317682385, 60.3897113871068
4.57500017228098, 16.530807148214, 67.367004036412
4.58333327474365, 17.3596511915636, 59.7509372396426
4.59166642103915, 16.8279242006412, 57.8580762687388
4.60000018352825, 17.3365507769634, 58.5139563208351
4.60833353930645, 17.2999654987211, 56.087684305708
4.61666646296818, 17.0233232114409, 56.5677267621187
4.62499983439354, 17.222624556363, 54.4289666841126
4.63333346993166, 16.8107779707022, 54.1424464911488
4.64166668075612, 16.4236376915876, 54.7457659848729
4.65000013140911, 16.3277880859125, 54.0361372374299
4.65833349188261, 15.8013687077419, 53.4444822288708
4.66666683577923, 15.6907597117765, 51.520074334698
4.67500017463771, 15.3184128209923, 51.3900369524425
4.68333346249409, 15.1323209482526, 50.930091683429
4.69166660022849, 14.4911365403233, 51.7954935382331
4.69999984321598, 14.5019856657794, 49.2384196360045
4.70833337108371, 14.2788035860963, 50.2684529874235
4.71666651628327, 13.8931239916436, 48.5373291385325
4.72500012849111, 13.4231512941798, 51.4033734467466
4.7333334421603, 12.4199903575241, 37.9738848383669
4.74166679206219, 13.3113424014274, 48.8471240122936
4.7500000718683, 12.7737259943626, 45.2827705264357
4.75833347938853, 12.5678812845497, 48.105262760349
4.76666679479687, 12.4914526338244, 44.0595828391884
4.77500009755408, 11.7796558661256, 45.6624338789348
4.7833334046171, 11.7827097743329, 43.0026289977369
4.79166667502099, 11.6510778681492, 42.6054218039616
4.80000013476521, 11.2612969715791, 41.7763800264433
4.80833330723218, 10.8684008117719, 42.1796236367679
4.81666662032427, 10.7168090987951, 41.8991022344689
4.82500011078279, 10.417248811766, 40.141064641053
4.83333345875573, 10.1382481821223, 39.5246629543654
4.84166660285966, 9.8231321078221, 40.1911960842436
4.8500000013479, 9.55506773620967, 40.7130089275585
4.85833346094918, 9.15190855679192, 39.0787949067113
4.86666674587814, 8.75904886965019, 36.9695346482199
4.87500012084615, 8.49763861542787, 36.6459156126325
4.88333324503911, 8.09901499680417, 34.7996305291503
4.89166678481788, 7.63706454941173, 36.4726478258535
4.90000002677911, 7.3758495978002, 34.5834402012087
4.90833325323334, 6.88620334016052, 33.7436744907786
4.91666666900871, 6.62385065250089, 34.0490501213793
4.92499992602596, 6.13382428662819, 33.5842592793943
4.93333335296224, 5.60182523619922, 32.2205054961711
4.94166673457641, 4.92766903962209, 31.632277984962
4.95000004187376, 3.28464813024377, 35.9488592350414
4.95833341409667, 2.22193498374854, 39.9424183090345
4.9666667050338, 1.48018345971713, 42.5984822309079
4.97499993700544, 0.769409340493631, 43.8084460144034
4.98333328429549, 0.262854475802211, 44.6595444211009
4.99166664525469, 0.0749215502544381, 45.5953427069839
5.00000007128752, -0.804124191401584, 45.2856818509115
5.00833335480935, -1.28042699138559, 45.8192205954809
5.01666663645412, -1.65216900296955, 45.9137235826754
5.02499998981021, -2.04927284963325, 45.8842447765139
5.03333342621643, -2.32507260657589, 45.5581932506102
5.04166671560169, -2.81304028269395, 44.8201028346485
5.04999994902654, -2.97766990306506, 45.2159584107171
5.05833333109995, -3.37946892311454, 45.7866434799126
5.06666664742727, -3.78793911994068, 44.5880253305964
5.07499998324985, -4.13282430660389, 44.3295568346125
5.08333336080936, -4.47797292608764, 44.2162564141374
5.09166674395411, -4.8451215881421, 42.7583102370442
5.10000004252948, -5.16976528137892, 43.4303729313721
5.10833327414773, -5.24871802178915, 41.1553414014631
5.11666670778796, -5.84464678265109, 40.425734388621
5.12499992884968, -6.14874861149774, 37.6382623019537
5.1333333897869, -6.8465394834412, 35.3204146138468
5.14166672273219, -7.0352290622253, 33.4957499226591
5.14999996011875, -7.53263384895897, 30.8449651127162
5.1583333564269, -7.678384175127, 27.9767678433737
5.16666667699595, -8.5823362405372, 25.4816051911188
5.17500005348774, -8.82196878257595, 27.8786895544618
5.1833332858704, -9.68846163725014, 25.027034151958
5.19166665282989, -10.0787467329093, 25.704386523578
5.19999997271323, -11.4500932078533, 28.2638294822532
5.20833327107933, -12.1142833495531, 26.0673719119922
5.21666663778148, -13.1479264838726, 30.3475494009332
5.22499997876529, -13.4558887026989, 34.6991609443967
5.23333338666618, -15.683755829061, 25.7249967158583
5.24166665861576, -15.7466860031133, 35.9181286128012
5.25000000526039, -18.1490987974519, 34.9688007140748
5.25833334173824, -19.0912387399263, 42.9666073125021
5.26666664226083, -21.6530505644844, 60.8160076177745
5.27500004108698, -22.5077168303817, 58.9395598481302
5.28333328971868, -23.4299039881834, 88.4225231461241
5.29166661828016, -23.860513245049, 91.5459057007321
5.29999998035002, -20.6166872654645, 131.917253344026
5.30833337563508, -19.9643809220348, 144.357080893273
5.31666664959014, -19.7486123971584, 148.23611293647
5.32499998543451, -18.0842065575218, 150.245790888316
5.33333330832198, -19.6161958307642, 148.433079428559
5.34166667647255, -16.6362437308259, 158.497212213941
5.34999999671289, -16.2461437020814, 165.392538126939
5.35833330342995, -15.1578488640429, 163.231300132532
5.36666665877233, -13.609795258143, 156.050779496173
5.37499997825154, -12.3105119422664, 166.51286478328
5.3833332943579, -13.8829149042633, 154.628995291185
5.39166666259882, -12.3509957682685, 166.439468106891
5.39999999709807, -11.689476694853, 168.500190807133
5.40833331969607, -12.0676000544177, 167.117407351575
5.41666667146402, -11.9778734895418, 169.006957580177
5.4250000337159, -11.6759075561532, 167.105280355892
5.43333333246258, -9.73819445116824, 166.513582500407
5.44166666209229, -9.96481619522542, 166.727209433686
5.44999998153852, -10.3493918772271, 168.678805999072
5.45833333691328, -8.35558685387794, 189.19931410778
5.46666664513068, -8.14815015152173, 181.413190336198
5.47499997590728, -9.41545886340641, 170.910166411534
5.47712125859582, -8.30920486070548, 169.80340951862
