Frequency Log(Hz), Gain (dB), Phase (deg)
3.00000330702098, 30.0921297049717, 107.234573514276
3.00999901826351, 29.6593012578022, 132.261460944616
3.02000165441083, 13.4107392401023, 10.2155703245907
3.03000562693885, 25.141496283488, 74.9754907384155
3.04000571832066, 28.8994912827917, 100.941197235115
3.04999706515493, 27.4051429750059, 65.3714399161282
3.05999275589204, 28.1131908406555, 73.0286899166936
3.07000459811, 28.8687170693, 92.2744338103176
3.0799927309839, 29.7427331353565, 153.371362565015
3.09000294779621, 34.3979085045395, 41.1539872171976
3.09999650842934, 30.0482351841813, 97.8854270446659
3.11000080906787, 31.7264178711673, 69.1639615982401
3.11999466293782, 27.4529937172169, 87.7991370618685
3.13000363828281, 24.0834946851585, 56.2361982539242
3.14000693911243, 28.6579871366175, 107.46528120771
3.14999981694791, 28.1491571677388, 107.272826099821
3.16000583832442, 32.9596873417226, 117.139907662053
3.17000532186667, 20.9286589351933, 129.413765137436
3.17999358236785, 21.9307575092658, 98.5435391662339
3.190005436766, 22.2309533085043, 52.6588294727856
3.19999588945832, 5.1261545432474, 74.7383358056227
3.20999867030517, 22.2662354538833, 155.043187789924
3.21999564412006, 20.2134968419011, 96.5377006896748
3.23000589783148, 22.3191773870202, 110.922108012107
3.24000013239226, 27.1215308385764, 110.140813934711
3.24999704841057, 27.1102833223731, 80.1218344294723
3.26000246307543, 24.7502938964238, 105.693768424755
3.26999981795393, 26.3997000555875, 115.67081874162
3.279995146171, 22.7775937442314, 115.742561683266
3.29000421164423, 25.2567727176587, 120.658129221989
3.30000068984962, 29.0395037455627, 104.799597550038
3.31000011404039, 28.206822156631, 112.739864330673
3.31999716623034, 25.391395861434, 111.444864129308
3.3299963462566, 25.0376724214934, 116.993975719009
3.34000163504945, 25.1270193617915, 118.888396357045
3.34999846102084, 24.6718797261342, 121.407527936962
3.35999992735521, 25.0116348420224, 112.553419157364
3.37000059983632, 23.155816498461, 117.490761508011
3.3800038386795, 25.3049295871874, 115.248302387486
3.38999610675649, 22.9864313779812, 112.76305033183
3.39999717920894, 22.3579116652703, 114.043706968233
3.41000134452198, 23.311782008996, 113.688130834157
3.42000326760922, 24.2142113115915, 157.478787923822
3.42999797293823, 21.5012716673644, 125.690415155466
3.44000285615304, 23.025726547185, 131.543124992316
3.44999775711607, 24.9275971761173, 135.82070424165
3.45999926429037, 18.8663678680679, 123.479075860407
3.47000181218862, 25.7296600319995, 116.652042523319
3.48000020519702, 32.4582725359949, 273.565999690051
3.4900026891692, 20.0129010750515, 110.405004281591
3.49999746978964, 5.88574060361938, 154.349374539991
3.50999869589289, 19.482257699995, 170.284040807696
3.52000081315797, 22.1206417511907, 113.018139459236
3.52999863661142, 20.2687114635345, 138.63794881735
3.53999899894863, 24.8729730773647, 130.651541139817
3.55000230764832, 25.3266639384536, 173.457701529654
3.55999766873837, 23.4243090119691, 132.531384765122
3.57000227037735, 22.8381929937545, 119.270310251643
3.57999972789045, 20.7795299114264, 127.641046001488
3.59000099441034, 27.1167341356492, 156.252757029106
3.6000006915169, 22.5057081123853, 131.863266462849
3.60999876643031, 24.0272871296496, 129.045248068479
3.61999991066602, 20.6413591160891, 112.749590934589
3.62999879536044, 22.3047299094208, 129.216194800044
3.63999971664584, 21.232668776888, 140.357976003524
3.65000194238805, 22.4176561213987, 130.498993423988
3.6600002598612, 22.2447599451091, 120.915959758805
3.66999845761835, -0.20510491652518, -3.13695152275407
3.67999987473582, 21.2655580556342, 136.784255615566
3.68999917191597, 24.7044147038993, 141.082849871485
3.69999943970551, 23.994015079433, 139.72189320331
3.70999943392397, 21.4468785938526, 126.186184769693
3.72000175758472, 23.0914972250864, 112.274907949067
3.73000112939508, 22.3420868502898, 129.478096556689
3.73999998519068, 21.0837657865054, 134.9396512541
3.75000043149688, 20.883905447077, 128.702446897798
3.76000075365051, 25.4607174562859, 148.006672170267
3.76999927162233, 20.7876006366643, 132.654916370172
3.7800010546204, 22.3368293777258, 133.654987312198
3.79000075973549, 22.4863155138709, 135.075851334117
3.7999998142457, 21.5189925662916, 118.548472117168
3.80999940525344, 21.9448794230779, 133.335332744239
3.82000049721633, 23.6831906678527, 117.689411444204
3.83000085729261, 23.4381032399133, 136.148760231822
3.84000125787367, 20.9659879380568, 110.728705198828
3.84999943002093, 21.1857202231862, 131.652142058577
3.85999877785404, 21.6310068723427, 129.650096243182
3.86999955780308, 20.908898040472, 131.189564800229
3.87999921680932, 21.4717842496919, 129.442244574757
3.89000052382276, 18.7255485629734, 146.284055179553
3.90000079057144, 21.1070745899935, 127.985291342289
3.90999993987657, 20.1075156103137, 123.357949826431
3.92000021954807, 20.6864281022549, 142.081025689766
3.93000118355219, 20.5915004682407, 133.95862021656
3.93999998444321, 19.198940806325, 138.565818012043
3.95000072260443, 20.1346048805671, 129.453530566467
3.96000036280632, 19.8893971820477, 130.344201981029
3.97000035756839, 19.8789803697777, 129.238339179285
3.97999979628936, 18.3201827850629, 137.249538958681
3.98999980304422, 20.7164501982571, 129.639989348783
3.99999926235039, 19.3169211749271, 120.447677655524
4.00999901826351, 20.5959244867563, 125.332624490726
4.01999972309296, 20.3908855532032, 123.887435515815
4.02999996489922, 19.6376827699188, 121.770103993733
4.04000018516678, 20.7602986804186, 124.691791661513
4.05000066999145, 18.5002395236991, 112.458800544198
4.05999980149489, 19.0258079044116, 132.12659008804
4.06999943425922, 19.0455994765102, 136.984194589508
4.07999945948522, 19.6433270153139, 124.036906546228
4.08999966016467, 19.9359272050019, 123.935832122766
4.09999972124884, 19.4718213885592, 122.514229490092
4.10999923923137, 20.900433496686, 112.461705625661
4.11999926527822, 17.6073990826316, 125.562911670612
4.13000063993298, 20.6594134762802, 117.309950433566
4.13999961388398, 20.9295986721811, 121.978223667307
4.14999981694791, 19.547456903603, 114.505498375523
4.16000024189028, 19.0011532128793, 118.797826712758
4.16999985281723, 19.4472565076937, 115.974064829838
4.18000026315334, 19.1718474841676, 117.801994185079
4.19000021386719, 4.27326209425137, 78.0526756185764
4.19999971751092, 18.2939932346017, 113.544113672623
4.20999991727272, 18.0190325512879, 109.694437202206
4.22000051846608, 18.8555432252978, 118.431832848794
4.22999994365738, 19.0636584863697, 112.590663692263
4.24000013239226, 18.1669027829898, 135.083970029691
4.25000046015857, 16.8398139488171, 103.9369476709
4.26000024036396, 17.904241057488, 113.130614673631
4.26999981795393, 17.0841696289237, 120.129540999421
4.28000045289683, 15.0436001402275, 120.464460952616
4.29000006294166, 17.4444242992411, 99.661225859082
4.29999967627841, 17.1114828806605, 109.850333061794
4.31000011404039, 17.0489968740781, 105.214370383476
4.32000007009975, 18.1466541474973, 98.9714642595961
4.33000012995228, 17.2322915389095, 121.154262643353
4.33999978627585, 16.6464160847244, 98.0271876576579
4.35000026771681, 16.641200774536, 108.038547264483
4.35999992735521, 17.3825168286318, 109.016925206871
4.36999973714728, 15.6548501970305, 116.7815190961
4.37999962343549, 15.5103933302664, 127.017779687134
4.39000022608364, 16.8215677478989, 101.908821303574
4.40000039965217, 16.6168977106931, 109.673810500277
4.40999977095989, 14.9243576202907, 116.755262448577
4.42000019213064, 15.5127529794557, 86.6319048196477
4.43000022705599, 15.4118014428143, 100.216570616127
4.43999991909148, 12.9387553884961, 86.1559357808125
4.44999990978314, 13.7861591729347, 87.7727353585304
4.45999996551124, 13.5980149911673, 103.563502987175
4.46999975641676, 14.8170317592018, 100.694065234942
4.48000020519702, 13.287789425958, 106.738552596604
4.49000007151029, 15.7546099028743, 112.636826735285
4.50000002787886, 14.1408555871591, 99.0086788641726
4.50999994582125, 12.1950752365397, 100.661953302747
4.52000020242138, 15.9385154727353, 99.1251732019855
4.52999983028398, 13.4412535127061, 95.5992204221634
4.54000016544894, 13.2943518818794, 96.0589947851785
4.5500000277616, 14.1327505729315, 97.178288875092
4.55999989674078, 14.9509165264544, 93.2214243860355
4.57000009310251, 12.6955445601162, 91.859049839974
4.58000025982042, 13.2050670160277, 88.1645838126023
4.58999995476798, 12.3743388425557, 94.6057034632875
4.60000018352825, 12.0246408235143, 91.4566529800813
4.60999975928383, 11.8391041241929, 92.0494699227083
4.61999991066602, 12.1324818778946, 82.0042903209316
4.63000021761126, 10.318634132142, 102.471872969645
4.64000017993751, 12.0393813561277, 88.604628984531
4.65000013140911, 9.81196862553259, 82.6516407248619
4.65999981742117, 13.3547013114883, 109.428749756883
4.67000018709664, 11.1518438766479, 85.7200990976824
4.67999987473582, 10.3807547646208, 81.5713216816838
4.68999999773495, 11.0394867451436, 83.6869708430108
4.69999984321598, 9.93216703691075, 72.4967717779146
4.70999982824942, 10.3330929549942, 81.7678645433384
4.71999983084231, 8.90294107784597, 97.8753441428739
4.72999999966384, 10.2587096390501, 81.8719162147713
4.73999998519068, 8.36237719810746, 78.4393851223952
4.7500000718683, 9.27010568790209, 78.8476659899989
4.7600000507659, 9.06331040503319, 78.2947563171438
4.76999995850858, 9.70452499131603, 78.3019861223459
4.78000004774634, 9.35631769706811, 76.7729301362541
4.79000010376545, 10.9022711375538, 87.5523395219193
4.80000013476521, 8.41108153054313, 83.5033746217921
4.810000031701, 8.63347006725989, 76.7218109557247
4.81999988502912, 8.63097969762069, 75.2132663260623
4.82999995991487, 8.03702817042475, 76.4738343641705
4.84000008860648, 8.4661296165697, 76.9324350591419
4.8500000013479, 7.97083855322976, 83.1491835221972
4.85999989449898, 7.90360725608562, 62.5983677063346
4.87000010341596, 6.82576985282567, 70.6487540805948
4.88000001659953, 8.4355342567105, 74.1408471598005
4.89000000276703, 7.72020177125986, 84.2028917764864
4.90000002677911, 5.92155514067385, 65.2626984096805
4.90999993987657, 5.61042902179708, 67.5081529322095
4.91999997640922, 7.48217321700889, 70.2749489280639
4.92999999553189, 5.42830230096461, 69.2002563532106
4.93999998444321, 5.49569976617591, 67.5458097976451
4.95000004187376, 4.66095020502561, 68.8144270647967
4.95999991931584, 4.07308291478344, 72.3026916229125
4.96999992417298, 4.59825214161954, 62.8519861583503
4.98000000805454, 4.32790812030616, 63.7605014710079
4.99000000998903, 4.38578160495703, 65.0928977938267
5.00000007128752, 3.55957886787684, 66.6999135963959
5.0100000064182, 4.43145888891708, 66.7731263105061
5.01999991622514, 4.29060536531399, 59.4401012071029
5.02999996489922, 3.62287869348131, 64.440203045502
5.0400000007271, 3.4925026993067, 58.1579261809735
5.04999994902654, 3.86740275769338, 57.4680582014457
5.05999997763349, 3.04470255525008, 60.4649217717805
5.06999995064706, 2.94559961509309, 67.9884459862189
5.07999996411862, 2.37724642212644, 60.6183783098493
5.08999998892895, 2.24670634394985, 58.9207839523099
5.10000004252948, 1.33869683797261, 59.2304222270795
5.11000002415033, 1.77793151418362, 59.6654457742063
5.12000003233021, 1.89423577601983, 64.9557165279806
5.13000004026053, 1.69965118149908, 55.0176018462886
5.14000005340117, 1.02043614207469, 60.3362016486455
5.14999996011875, 1.03591731068709, 59.8505720330496
5.15999996206668, 1.24509858445803, 56.5637515926846
5.1699999895443, 1.25721070814856, 57.0490956583902
5.17999999592389, 0.953066960517753, 55.3041462995531
5.1899999527206, 0.973283901078359, 54.3124687755005
5.19999997271323, 0.713900051275708, 54.3741348806068
5.21000004196928, 0.356265005886902, 53.422330817626
5.22000003103394, 0.655428223860877, 53.0225331916131
5.22999994365738, 0.142561772245113, 52.2982155881409
5.24000001601868, 0.485228333248922, 52.6328582838209
5.25000000526039, 0.307780049916713, 50.7024547081391
5.26000001809219, 0.269307642514524, 49.772200034504
5.27000003516628, 0.24535672810352, 48.9555040587757
5.28000002836115, 0.263829286964631, 48.3120860912968
5.28999995922359, 0.264683151904376, 47.5277408715675
5.29999998035002, 0.262719658959609, 46.8125716098978
5.31000001499042, 0.25405150877402, 45.9956975606465
5.31999997330442, 0.270348227429103, 45.2428385674716
5.33000003536029, 0.280106540039714, 44.4263380092829
5.33999997115356, 0.275444190125071, 43.5768437840289
5.34999999671289, 0.287667332056421, 42.7220707401967
5.36000001563362, 0.294014709966897, 41.7379477233968
5.36999999595417, 0.305052391637631, 40.6679611255309
5.37999996065652, 0.403816370643751, 39.5897913345321
5.38999997892511, 0.57947370299616, 38.5628489358627
5.39999999709807, 1.41882668500088, 40.1393219320533
5.41000000699456, 0.967358401853631, 36.8813690856813
5.42000003835614, 1.01453025944202, 40.6368991440186
5.43000000164474, 2.50520757674561, 44.4958180478511
5.43999999251826, 1.71835693955586, 35.7325002083977
5.44999998153852, 3.48992455752985, 43.7839547456666
5.45999996551124, 1.86503647489169, 48.0764847388595
5.47000003052024, 3.5022529468355, 34.9809017787061
5.48000000429903, 2.35827554912362, 69.6677215862948
5.49000000606861, 4.56992031930439, 58.8299652079101
5.50000002787886, 7.10208981495095, 59.644144085763
5.51000000831757, 6.64470925521764, 33.5419879662348
5.52000001920024, 1.51664690870926, 44.0986529067507
5.53000000933458, 3.33571404178707, 30.9439145526176
5.5399999904741, -0.410945089817305, 53.5641031398031
5.5500000277616, 9.98530468716711, 45.2397037436765
5.5600000081406, 3.90216289539732, 11.702504713677
5.56999998423848, -4.26828816059053, 78.5707343110683
5.57999999385552, -0.79133642670692, 79.0866603476286
5.59000000675015, 2.20091078539912, 70.795728271186
5.59999998033263, 7.17281704900909, -35.8005763569383
5.61000000749686, 9.8106217469822, -22.5187213665183
5.62000000769121, 7.72040670417338, 89.0693171109238
5.62999998056978, -0.410770593060474, 21.5056656690723
5.6399999946209, 3.69475486756883, 60.9097737770625
5.64999999558539, 1.63324508951206, 29.5637578735695
5.65999999439724, 10.0760985202443, 197.787457024177
5.67000001414912, -5.24853804114368, 98.3557435327039
5.68000000149394, -9.2278418129771, 71.9412448521676
5.68999999773495, 3.12219705383377, 60.1453139151857
5.70000000462006, 13.5184862022604, 78.0865606147265
5.7099999859795, -3.80347415875201, 91.9312714908898
5.71999998498202, 1.66032679833702, 155.806203262538
5.72999999966384, -3.97690146968132, 116.451412669997
5.73999998519068, -0.334520045975878, 140.520492435941
5.74999999994255, 0.49111129884167, 184.030122062091
5.76000001562164, 3.91810711247765, 171.62553546895
5.76999999285287, -0.0505112397971328, 126.962234871006
5.78000001418383, 3.89899851194268, 123.929091758467
5.79000000536985, 0.0874331414794087, 129.70807753777
5.80000000655743, 1.47044927087462, 170.236326924652
5.81000000037864, 5.4450240222254, 131.402861067008
5.82000000746663, 0.586389348636477, 122.248287022397
5.82999998982749, -0.30104641961538, 117.468321316627
5.84000000091131, 9.10711069281752, 45.8948799141333
5.8500000013479, 12.0936786408907, 206.184376202159
5.86000000616331, -6.96715126774103, 85.2275846621362
5.86999999429344, 9.84476810254306, 73.4222621331176
5.87999998993988, -1.38729797120886, 3.39079184654336
5.89000000276703, -3.06788343515201, -43.5957844725679
5.90000000131934, -4.80026338174189, -167.088728835746
5.90999998963704, 6.27459404924406, -241.187684720521
5.92000000072311, -5.57105997654573, -372.403088553481
5.92999999553189, -2.78209194677417, -339.294508019765
5.94000000766279, -8.24436617073685, -388.847007356926
5.94999999649168, 2.87989603945897, -437.604457279274
5.96000000801397, -0.553592781923813, -500.636634141839
5.96999998918232, -6.75440323270948, -531.23106229678
5.98000000805454, -7.50534840214114, -509.843162363216
5.99000000998903, -1.83078011499358, -515.426071659596
5.99999999039388, 5.80220259648518, -521.193452692736
